
T1B50 000:834 SEGGER J-Link V4.24b Log File (0002ms, 0830ms total)
T1B50 000:834 DLL Compiled: Feb 22 2011 20:47:17 (0002ms, 0830ms total)
T1B50 000:834 Logging started @ 2011-07-07 13:42 (0002ms, 0830ms total)
T1B50 000:836 JLINK_SetWarnOutHandler(...) (0000ms, 0832ms total)
T1B50 000:836 JLINK_OpenEx(...)
Firmware: J-Link ARM V8 compiled Jan 31 2011 18:34:52
Hardware: V8.00
S/N: 805306163
Feature(s): RDI,FlashDL,FlashBP,JFlash,GDBFull  returns O.K. (0481ms, 0832ms total)
T1B50 001:319 JLINK_SetErrorOutHandler(...) (0000ms, 1313ms total)
T1B50 001:320 JLINK_ExecCommand("ProjectFile = "D:\BufferModeForInterpreter\USART_test\JLinkSettings.ini"", ...)  returns 0x00 (0004ms, 1313ms total)
T1B50 001:326 JLINK_ExecCommand("DisableConnectionTimeout", ...)  returns 0x00 (0000ms, 1317ms total)
T1B50 001:327 JLINK_TIF_Select(JLINKARM_TIF_SWD)  returns 0x00 (0009ms, 1317ms total)
T1B50 001:338 JLINK_SetSpeed(2000) (0003ms, 1326ms total)
T1B50 001:342 JLINK_GetHardwareVersion()  returns 0x13880 (0000ms, 1329ms total)
T1B50 001:342 JLINK_GetDLLVersion()  returns 42402 (0000ms, 1329ms total)
T1B50 001:342 JLINK_GetFirmwareString(...) (0000ms, 1329ms total)
T1B50 001:343 JLINK_GetDLLVersion()  returns 42402 (0000ms, 1329ms total)
T1B50 001:343 JLINK_GetCompileDateTime() (0000ms, 1329ms total)
T1B50 001:344 JLINK_GetFirmwareString(...) (0000ms, 1329ms total)
T1B50 001:344 JLINK_GetHardwareVersion()  returns 0x13880 (0000ms, 1329ms total)
T1B50 001:345 JLINK_GetId() >0x108 TIF>Found SWD-DP with ID 0x1BA01477 >0x33 TIF> >0x33 TIF> >0x35 TIF> >0x33 TIF> >0x35 TIF> >0x33 TIF> >0x33 TIF> >0x35 TIF> >0x33 TIF> >0x33 TIF> >0x35 TIF> >0x33 TIF> >0x33 TIF> >0x35 TIF> >0x35 TIF> >0x35 TIF> >0x35 TIF> >0x33 TIF> >0x33 TIF> >0x33 TIF> >0x35 TIF> >0x35 TIF> >0x35 TIF> >0x35 TIF> >0x33 TIF> >0x33 TIF> >0x35 TIF> >0x35 TIF> >0x35 TIF> >0x33 TIF> >0x33 TIF>TPIU fitted. >0x35 TIF> >0x35 TIF> >0x35 TIF> >0x33 TIF> >0x33 TIF>ETM fitted. >0x35 TIF>
 >0x35 TIF> >0x35 TIF> >0x33 TIF> >0x33 TIF> >0x35 TIF> >0x35 TIF> >0x35 TIF> >0x33 TIF> >0x33 TIF>  FPUnit: 6 code (BP) slots and 2 literal slots >0x35 TIF> >0x35 TIF> >0x35 TIF> >0x33 TIF> >0x33 TIF> >0x35 TIF> >0x35 TIF> >0x35 TIF> >0x33 TIF> >0x33 TIF> >0x35 TIF> >0x35 TIF> >0x35 TIF> >0x33 TIF> >0x33 TIF>Found Cortex-M3 r1p1, Little endian. >0x33 TIF>  returns 0x1BA01477 (0085ms, 1329ms total)
T1B50 001:430 JLINK_GetDebugInfo(0x100) -- Value=0xE00FF003  returns 0x00 (0001ms, 1414ms total)
T1B50 001:431 JLINK_ReadMem (0xE00FFFF0, 0x0010 Bytes, ...) -- CPU is running -- CPU_ReadMem(16 bytes @ 0xE00FFFF0) -- Data:  0D 00 00 00 10 00 00 00 05 00 00 00 B1 00 00 00  returns 0x00 (0003ms, 1415ms total)
T1B50 001:434 JLINK_ReadMem (0xE00FFFD0, 0x0020 Bytes, ...) -- CPU is running -- CPU_ReadMem(32 bytes @ 0xE00FFFD0) -- Data:  00 00 00 00 00 00 00 00 00 00 00 00 00 00 00 00 ...  returns 0x00 (0002ms, 1418ms total)
T1B50 001:436 JLINK_ReadMem (0xE00FF000, 0x0018 Bytes, ...) -- CPU is running -- CPU_ReadMem(24 bytes @ 0xE00FF000) -- Data:  03 F0 F0 FF 03 20 F0 FF 03 30 F0 FF 03 10 F0 FF ...  returns 0x00 (0002ms, 1420ms total)
T1B50 001:438 JLINK_ReadMemU32(0xE000ED00, 0x0001 Items, ...) -- CPU is running -- CPU_ReadMem(4 bytes @ 0xE000ED00) -- Data:  31 C2 1F 41  returns 0x01 (0001ms, 1422ms total)
T1B50 001:439 JLINK_SetResetType(JLINKARM_RESET_TYPE_NORMAL)  returns JLINKARM_RESET_TYPE_NORMAL (0000ms, 1423ms total)
T1B50 001:439 JLINK_Reset() >0x108 TIF>Found SWD-DP with ID 0x1BA01477 >0x33 TIF> >0x33 TIF> >0x35 TIF> >0x33 TIF> >0x35 TIF> >0x33 TIF> >0x33 TIF> >0x35 TIF> >0x33 TIF> >0x33 TIF> >0x35 TIF> >0x33 TIF> >0x33 TIF> >0x35 TIF> >0x35 TIF> >0x35 TIF> >0x35 TIF> >0x33 TIF> >0x33 TIF> >0x33 TIF> >0x35 TIF> >0x35 TIF> >0x35 TIF> >0x35 TIF> >0x33 TIF> >0x33 TIF> >0x35 TIF> >0x35 TIF> >0x35 TIF> >0x33 TIF> >0x33 TIF>TPIU fitted. >0x35 TIF> >0x35 TIF> >0x35 TIF> >0x33 TIF> >0x33 TIF>ETM fitted. >0x35 TIF>
 >0x35 TIF> >0x35 TIF> >0x33 TIF> >0x33 TIF> >0x35 TIF> >0x35 TIF> >0x35 TIF> >0x33 TIF> >0x33 TIF>  FPUnit: 6 code (BP) slots and 2 literal slots >0x35 TIF> >0x35 TIF> >0x35 TIF> >0x33 TIF> >0x33 TIF> >0x35 TIF> >0x35 TIF> >0x35 TIF> >0x33 TIF> >0x33 TIF> >0x35 TIF> >0x35 TIF> >0x35 TIF> >0x33 TIF> >0x33 TIF>Found Cortex-M3 r1p1, Little endian. (0097ms, 1423ms total)
T1B50 001:536 JLINK_ReadReg(R15)  returns 0x08000100 (0000ms, 1520ms total)
T1B50 001:536 JLINK_ReadReg(XPSR)  returns 0x01000000 (0000ms, 1520ms total)
T1B50 001:537 JLINK_ExecCommand("Device = STM32F103ZE", ...)
                JLINK_ExecCommand("map ram 0x20000000 - 0x2000FFFF", ...)  returns 0x00 (0000ms, 0000ms total)
                JLINK_AddMirrorAreaEx(Addr = 0x00000000, Size = 0x00000000) (0000ms, 0000ms total)
                returns 0x00 (0001ms, 1521ms total)
T1B50 001:538 JLINK_Halt() >0x108 TIF>Found SWD-DP with ID 0x1BA01477 >0x33 TIF> >0x33 TIF> >0x35 TIF> >0x33 TIF> >0x35 TIF> >0x33 TIF> >0x33 TIF> >0x35 TIF> >0x33 TIF> >0x33 TIF> >0x35 TIF> >0x33 TIF> >0x33 TIF> >0x35 TIF> >0x35 TIF> >0x35 TIF> >0x35 TIF> >0x33 TIF> >0x33 TIF> >0x33 TIF> >0x35 TIF> >0x35 TIF> >0x35 TIF> >0x35 TIF> >0x33 TIF> >0x33 TIF> >0x35 TIF> >0x35 TIF> >0x35 TIF> >0x33 TIF> >0x33 TIF>TPIU fitted. >0x35 TIF> >0x35 TIF> >0x35 TIF> >0x33 TIF> >0x33 TIF>ETM fitted. >0x35 TIF>
 >0x35 TIF> >0x35 TIF> >0x33 TIF> >0x33 TIF> >0x35 TIF> >0x35 TIF> >0x35 TIF> >0x33 TIF> >0x33 TIF>  FPUnit: 6 code (BP) slots and 2 literal slots >0x35 TIF> >0x35 TIF> >0x35 TIF> >0x33 TIF> >0x33 TIF> >0x35 TIF> >0x35 TIF> >0x35 TIF> >0x33 TIF> >0x33 TIF> >0x35 TIF> >0x35 TIF> >0x35 TIF> >0x33 TIF> >0x33 TIF>Found Cortex-M3 r1p1, Little endian.  returns 0x00 (0064ms, 1522ms total)
T1B50 001:602 JLINK_IsHalted()  returns TRUE (0000ms, 1586ms total)
T1B50 001:602 JLINK_ReadMemU32(0xE000EDF0, 0x0001 Items, ...) -- CPU_ReadMem(4 bytes @ 0xE000EDF0) -- Data:  03 00 03 00  returns 0x01 (0002ms, 1586ms total)
T1B50 001:604 JLINK_WriteU32(0xE000EDF0, 0xA05F0003) -- CPU_WriteMem(4 bytes @ 0xE000EDF0)  returns 0x00 (0001ms, 1588ms total)
T1B50 001:605 JLINK_WriteU32(0xE000EDFC, 0x01000000) -- CPU_WriteMem(4 bytes @ 0xE000EDFC)  returns 0x00 (0001ms, 1589ms total)
T1B50 001:606 JLINK_ReadMemU32(0xE0002000, 0x0001 Items, ...) -- CPU_ReadMem(4 bytes @ 0xE0002000) -- Data:  60 02 00 00  returns 0x01 (0001ms, 1590ms total)
T1B50 001:607 JLINK_ReadMemU32(0xE0001000, 0x0001 Items, ...) -- CPU_ReadMem(4 bytes @ 0xE0001000) -- Data:  01 00 00 40  returns 0x01 (0001ms, 1591ms total)
T1B50 001:609 JLINK_GetHWStatus(...)  returns 0x00 (0001ms, 1592ms total)
T1B50 001:610 JLINK_GetNumBPUnits(Type = 0xFFFFFF00)  returns 0x06 (0001ms, 1593ms total)
T1B50 001:611 JLINK_GetNumBPUnits(Type = 0xF0)  returns 0x800 (0000ms, 1594ms total)
T1B50 001:611 JLINK_GetNumWPUnits()  returns 0x00 (0000ms, 1594ms total)
T1B50 001:611 JLINK_GetSpeed()  returns 0x7D0 (0000ms, 1594ms total)
T1B50 001:612 JLINK_ReadMemU32(0xE000E004, 0x0001 Items, ...) -- CPU_ReadMem(4 bytes @ 0xE000E004) -- Data:  01 00 00 00  returns 0x01 (0001ms, 1594ms total)
T1B50 001:613 JLINK_WriteMem(0xE0001000, 0x001C Bytes, ...) -- Data:  01 00 00 00 00 00 00 00 00 00 00 00 00 00 00 00 ... -- CPU_WriteMem(28 bytes @ 0xE0001000)  returns 0x1C (0001ms, 1595ms total)
T1B50 001:614 JLINK_ReadMem (0xE0001000, 0x001C Bytes, ...) -- CPU_ReadMem(28 bytes @ 0xE0001000) -- Data:  01 00 00 40 00 00 00 00 00 00 00 00 00 00 00 00 ...  returns 0x00 (0002ms, 1596ms total)
T1B50 001:616 JLINK_ReadReg(R15)  returns 0x08000100 (0000ms, 1598ms total)
T1B50 001:616 JLINK_ReadReg(XPSR)  returns 0x01000000 (0000ms, 1598ms total)
T1B50 011:123 JLINK_SetResetType(JLINKARM_RESET_TYPE_NORMAL)  returns JLINKARM_RESET_TYPE_NORMAL (0000ms, 1598ms total)
T1B50 011:124 JLINK_Reset() >0x108 TIF>Found SWD-DP with ID 0x1BA01477 >0x33 TIF> >0x33 TIF> >0x35 TIF> >0x33 TIF> >0x35 TIF> >0x33 TIF> >0x33 TIF> >0x35 TIF> >0x33 TIF> >0x33 TIF> >0x35 TIF> >0x33 TIF> >0x33 TIF> >0x35 TIF> >0x35 TIF> >0x35 TIF> >0x35 TIF> >0x33 TIF> >0x33 TIF> >0x33 TIF> >0x35 TIF> >0x35 TIF> >0x35 TIF> >0x35 TIF> >0x33 TIF> >0x33 TIF> >0x35 TIF> >0x35 TIF> >0x35 TIF> >0x33 TIF> >0x33 TIF>TPIU fitted. >0x35 TIF> >0x35 TIF> >0x35 TIF> >0x33 TIF> >0x33 TIF>ETM fitted. >0x35 TIF>
 >0x35 TIF> >0x35 TIF> >0x33 TIF> >0x33 TIF> >0x35 TIF> >0x35 TIF> >0x35 TIF> >0x33 TIF> >0x33 TIF>  FPUnit: 6 code (BP) slots and 2 literal slots >0x35 TIF> >0x35 TIF> >0x35 TIF> >0x33 TIF> >0x33 TIF> >0x35 TIF> >0x35 TIF> >0x35 TIF> >0x33 TIF> >0x33 TIF> >0x35 TIF> >0x35 TIF> >0x35 TIF> >0x33 TIF> >0x33 TIF>Found Cortex-M3 r1p1, Little endian. (0112ms, 1599ms total)
T1B50 011:236 JLINK_ReadReg(R15)  returns 0x08000100 (0001ms, 1711ms total)
T1B50 011:237 JLINK_ReadReg(XPSR)  returns 0x01000000 (0000ms, 1712ms total)
T1B50 011:237 JLINK_ReadReg(R0)  returns 0x20000000 (0000ms, 1712ms total)
T1B50 011:237 JLINK_ReadReg(R1)  returns 0x00010000 (0000ms, 1712ms total)
T1B50 011:237 JLINK_ReadReg(R2)  returns 0x00000000 (0001ms, 1712ms total)
T1B50 011:238 JLINK_ReadReg(R3)  returns 0x00000000 (0000ms, 1713ms total)
T1B50 011:238 JLINK_ReadReg(R4)  returns 0x00000001 (0000ms, 1713ms total)
T1B50 011:238 JLINK_ReadReg(R5)  returns 0x000000C2 (0000ms, 1713ms total)
T1B50 011:238 JLINK_ReadReg(R6)  returns 0x00000000 (0000ms, 1713ms total)
T1B50 011:238 JLINK_ReadReg(R7)  returns 0x00000000 (0000ms, 1713ms total)
T1B50 011:238 JLINK_ReadReg(R8)  returns 0x00000000 (0000ms, 1713ms total)
T1B50 011:238 JLINK_ReadReg(R9)  returns 0x00000000 (0000ms, 1713ms total)
T1B50 011:238 JLINK_ReadReg(R10)  returns 0x00000000 (0001ms, 1713ms total)
T1B50 011:239 JLINK_ReadReg(R11)  returns 0x00000000 (0000ms, 1714ms total)
T1B50 011:239 JLINK_ReadReg(R12)  returns 0x00000066 (0000ms, 1714ms total)
T1B50 011:240 JLINK_ReadReg(R14)  returns 0xFFFFFFFF (0000ms, 1715ms total)
T1B50 011:240 JLINK_ReadReg(R15)  returns 0x08000100 (0000ms, 1715ms total)
T1B50 011:243 JLINK_ReadReg(XPSR)  returns 0x01000000 (0000ms, 1715ms total)
T1B50 011:243 JLINK_ReadReg(CFBP)  returns 0x00000000 (0000ms, 1715ms total)
T1B50 011:243 JLINK_ReadReg(MSP)  returns 0x2000E6D0 (0000ms, 1715ms total)
T1B50 011:243 JLINK_WriteReg(R0, 0x20000000)  returns 0x00 (0001ms, 1715ms total)
T1B50 011:244 JLINK_WriteReg(R1, 0x00010000)  returns 0x00 (0000ms, 1716ms total)
T1B50 011:244 JLINK_WriteReg(R2, 0x00000000)  returns 0x00 (0000ms, 1716ms total)
T1B50 011:244 JLINK_WriteReg(R3, 0x00000000)  returns 0x00 (0000ms, 1716ms total)
T1B50 011:244 JLINK_WriteReg(R4, 0x00000001)  returns 0x00 (0000ms, 1716ms total)
T1B50 011:244 JLINK_WriteReg(R5, 0x000000C2)  returns 0x00 (0000ms, 1716ms total)
T1B50 011:244 JLINK_WriteReg(R6, 0x00000000)  returns 0x00 (0000ms, 1716ms total)
T1B50 011:244 JLINK_WriteReg(R7, 0x00000000)  returns 0x00 (0000ms, 1716ms total)
T1B50 011:244 JLINK_WriteReg(R8, 0x00000000)  returns 0x00 (0001ms, 1716ms total)
T1B50 011:245 JLINK_WriteReg(R9, 0x00000000)  returns 0x00 (0000ms, 1717ms total)
T1B50 011:245 JLINK_WriteReg(R10, 0x00000000)  returns 0x00 (0000ms, 1717ms total)
T1B50 011:245 JLINK_WriteReg(R11, 0x00000000)  returns 0x00 (0000ms, 1717ms total)
T1B50 011:245 JLINK_WriteReg(R12, 0x00000066)  returns 0x00 (0000ms, 1717ms total)
T1B50 011:245 JLINK_WriteReg(R13, 0x2000E6D0)  returns 0x00 (0000ms, 1717ms total)
T1B50 011:245 JLINK_WriteReg(R14, 0xFFFFFFFF)  returns 0x00 (0000ms, 1717ms total)
T1B50 011:245 JLINK_WriteReg(R15, 0x08000100)  returns 0x00 (0000ms, 1717ms total)
T1B50 011:245 JLINK_WriteReg(XPSR, 0x01000000)  returns 0x00 (0001ms, 1717ms total)
T1B50 011:246 JLINK_WriteReg(MSP, 0x2000E6D0)  returns 0x00 (0000ms, 1718ms total)
T1B50 011:246 JLINK_WriteReg(PSP, 0x00000000)  returns 0x00 (0000ms, 1718ms total)
T1B50 011:246 JLINK_WriteReg(CFBP, 0x00000000)  returns 0x00 (0000ms, 1718ms total)
T1B50 011:246 JLINK_ReadReg(R0)  returns 0x20000000 (0000ms, 1718ms total)
T1B50 011:246 JLINK_ReadReg(R1)  returns 0x00010000 (0000ms, 1718ms total)
T1B50 011:246 JLINK_ReadReg(R2)  returns 0x00000000 (0001ms, 1718ms total)
T1B50 011:247 JLINK_ReadReg(R3)  returns 0x00000000 (0000ms, 1719ms total)
T1B50 011:247 JLINK_ReadReg(R4)  returns 0x00000001 (0000ms, 1719ms total)
T1B50 011:247 JLINK_ReadReg(R5)  returns 0x000000C2 (0000ms, 1719ms total)
T1B50 011:247 JLINK_ReadReg(R6)  returns 0x00000000 (0000ms, 1719ms total)
T1B50 011:247 JLINK_ReadReg(R7)  returns 0x00000000 (0000ms, 1719ms total)
T1B50 011:247 JLINK_ReadReg(R8)  returns 0x00000000 (0000ms, 1719ms total)
T1B50 011:247 JLINK_ReadReg(R9)  returns 0x00000000 (0001ms, 1719ms total)
T1B50 011:248 JLINK_ReadReg(R10)  returns 0x00000000 (0000ms, 1720ms total)
T1B50 011:248 JLINK_ReadReg(R11)  returns 0x00000000 (0000ms, 1720ms total)
T1B50 011:248 JLINK_ReadReg(R12)  returns 0x00000066 (0000ms, 1720ms total)
T1B50 011:248 JLINK_ReadReg(R14)  returns 0xFFFFFFFF (0000ms, 1720ms total)
T1B50 011:248 JLINK_ReadReg(R15)  returns 0x08000100 (0000ms, 1720ms total)
T1B50 011:248 JLINK_ReadReg(XPSR)  returns 0x01000000 (0000ms, 1720ms total)
T1B50 011:248 JLINK_ReadReg(CFBP)  returns 0x00000000 (0002ms, 1720ms total)
T1B50 011:250 JLINK_ReadReg(MSP)  returns 0x2000E6D0 (0000ms, 1722ms total)
T1B50 011:250 JLINK_ReadMemU32(0xE0001004, 0x0001 Items, ...) -- CPU_ReadMem(4 bytes @ 0xE0001004) -- Data:  01 00 00 40  returns 0x01 (0001ms, 1722ms total)
T1364 014:266 JLINK_SetBPEx(Addr = 0x08010EB8, Type = 0xFFFFFFF2)  returns 0x00000001 (0002ms, 1723ms total)
T1364 014:268 JLINK_Go() -- CPU_WriteMem(4 bytes @ 0xE0002000) -- CPU_WriteMem(4 bytes @ 0xE0002008) -- CPU_WriteMem(4 bytes @ 0xE000200C) -- CPU_WriteMem(4 bytes @ 0xE0002010) -- CPU_WriteMem(4 bytes @ 0xE0002014) -- CPU_WriteMem(4 bytes @ 0xE0002018) -- CPU_WriteMem(4 bytes @ 0xE000201C) (0014ms, 1725ms total)
T1364 014:383 JLINK_IsHalted()  returns TRUE (0009ms, 1739ms total)
T1364 014:392 JLINK_Halt()  returns 0x00 (0000ms, 1739ms total)
T1364 014:392 JLINK_IsHalted()  returns TRUE (0000ms, 1739ms total)
T1364 014:392 JLINK_IsHalted()  returns TRUE (0000ms, 1739ms total)
T1364 014:392 JLINK_IsHalted()  returns TRUE (0000ms, 1739ms total)
T1364 014:392 JLINK_ReadReg(R15)  returns 0x08010EB8 (0000ms, 1739ms total)
T1364 014:392 JLINK_ReadReg(XPSR)  returns 0x61000000 (0001ms, 1739ms total)
T1364 014:393 JLINK_ClrBPEx(BPHandle = 0x00000001)  returns 0x00 (0000ms, 1740ms total)
T1364 014:393 JLINK_ReadMemU32(0xE000ED30, 0x0001 Items, ...) -- CPU_ReadMem(4 bytes @ 0xE000ED30) -- Data:  03 00 00 00  returns 0x01 (0001ms, 1740ms total)
T1364 014:394 JLINK_ReadMemU32(0xE0001028, 0x0001 Items, ...) -- CPU_ReadMem(4 bytes @ 0xE0001028) -- Data:  01 00 00 40  returns 0x01 (0001ms, 1741ms total)
T1364 014:395 JLINK_ReadMemU32(0xE0001038, 0x0001 Items, ...) -- CPU_ReadMem(4 bytes @ 0xE0001038) -- Data:  01 00 00 40  returns 0x01 (0001ms, 1742ms total)
T1364 014:396 JLINK_ReadMemU32(0xE0001048, 0x0001 Items, ...) -- CPU_ReadMem(4 bytes @ 0xE0001048) -- Data:  01 00 00 40  returns 0x01 (0001ms, 1743ms total)
T1364 014:397 JLINK_ReadMemU32(0xE0001058, 0x0001 Items, ...) -- CPU_ReadMem(4 bytes @ 0xE0001058) -- Data:  01 00 00 40  returns 0x01 (0001ms, 1744ms total)
T1364 014:398 JLINK_ReadReg(R0)  returns 0x08010EB9 (0000ms, 1745ms total)
T1364 014:398 JLINK_ReadReg(R1)  returns 0x2000E6D0 (0000ms, 1745ms total)
T1364 014:398 JLINK_ReadReg(R2)  returns 0x00000000 (0000ms, 1745ms total)
T1364 014:398 JLINK_ReadReg(R3)  returns 0x08003639 (0001ms, 1745ms total)
T1364 014:399 JLINK_ReadReg(R4)  returns 0x08019B48 (0000ms, 1746ms total)
T1364 014:399 JLINK_ReadReg(R5)  returns 0x08019B48 (0000ms, 1746ms total)
T1364 014:399 JLINK_ReadReg(R6)  returns 0x00000000 (0000ms, 1746ms total)
T1364 014:399 JLINK_ReadReg(R7)  returns 0x00000000 (0000ms, 1746ms total)
T1364 014:399 JLINK_ReadReg(R8)  returns 0x00000000 (0000ms, 1746ms total)
T1364 014:399 JLINK_ReadReg(R9)  returns 0x00000000 (0000ms, 1746ms total)
T1364 014:399 JLINK_ReadReg(R10)  returns 0x00000000 (0000ms, 1746ms total)
T1364 014:399 JLINK_ReadReg(R11)  returns 0x00000000 (0001ms, 1746ms total)
T1364 014:400 JLINK_ReadReg(R12)  returns 0x00000066 (0000ms, 1747ms total)
T1364 014:400 JLINK_ReadReg(R14)  returns 0x08000E91 (0000ms, 1747ms total)
T1364 014:400 JLINK_ReadReg(R15)  returns 0x08010EB8 (0000ms, 1747ms total)
T1364 014:400 JLINK_ReadReg(XPSR)  returns 0x61000000 (0000ms, 1747ms total)
T1364 014:400 JLINK_ReadReg(CFBP)  returns 0x00000000 (0000ms, 1747ms total)
T1364 014:400 JLINK_ReadReg(MSP)  returns 0x2000E6D0 (0000ms, 1747ms total)
T1B50 014:401 JLINK_WriteReg(R0, 0x08010EB9)  returns 0x00 (0000ms, 1747ms total)
T1B50 014:401 JLINK_WriteReg(R1, 0x2000E6D0)  returns 0x00 (0000ms, 1747ms total)
T1B50 014:401 JLINK_WriteReg(R2, 0x00000000)  returns 0x00 (0000ms, 1747ms total)
T1B50 014:401 JLINK_WriteReg(R3, 0x08003639)  returns 0x00 (0001ms, 1747ms total)
T1B50 014:402 JLINK_WriteReg(R4, 0x08019B48)  returns 0x00 (0000ms, 1748ms total)
T1B50 014:402 JLINK_WriteReg(R5, 0x08019B48)  returns 0x00 (0000ms, 1748ms total)
T1B50 014:402 JLINK_WriteReg(R6, 0x00000000)  returns 0x00 (0000ms, 1748ms total)
T1B50 014:402 JLINK_WriteReg(R7, 0x00000000)  returns 0x00 (0000ms, 1748ms total)
T1B50 014:402 JLINK_WriteReg(R8, 0x00000000)  returns 0x00 (0000ms, 1748ms total)
T1B50 014:402 JLINK_WriteReg(R9, 0x00000000)  returns 0x00 (0000ms, 1748ms total)
T1B50 014:402 JLINK_WriteReg(R10, 0x00000000)  returns 0x00 (0000ms, 1748ms total)
T1B50 014:403 JLINK_WriteReg(R11, 0x00000000)  returns 0x00 (0000ms, 1748ms total)
T1B50 014:403 JLINK_WriteReg(R12, 0x00000066)  returns 0x00 (0000ms, 1748ms total)
T1B50 014:403 JLINK_WriteReg(R13, 0x2000E6D0)  returns 0x00 (0000ms, 1748ms total)
T1B50 014:403 JLINK_WriteReg(R14, 0x08000E91)  returns 0x00 (0000ms, 1748ms total)
T1B50 014:403 JLINK_WriteReg(R15, 0x08010EB8)  returns 0x00 (0000ms, 1748ms total)
T1B50 014:403 JLINK_WriteReg(XPSR, 0x61000000)  returns 0x00 (0000ms, 1748ms total)
T1B50 014:403 JLINK_WriteReg(MSP, 0x2000E6D0)  returns 0x00 (0000ms, 1748ms total)
T1B50 014:403 JLINK_WriteReg(PSP, 0x00000000)  returns 0x00 (0000ms, 1748ms total)
T1B50 014:403 JLINK_WriteReg(CFBP, 0x00000000)  returns 0x00 (0001ms, 1748ms total)
T1B50 014:404 JLINK_ReadReg(R0)  returns 0x08010EB9 (0000ms, 1749ms total)
T1B50 014:404 JLINK_ReadReg(R1)  returns 0x2000E6D0 (0000ms, 1749ms total)
T1B50 014:404 JLINK_ReadReg(R2)  returns 0x00000000 (0000ms, 1749ms total)
T1B50 014:404 JLINK_ReadReg(R3)  returns 0x08003639 (0000ms, 1749ms total)
T1B50 014:404 JLINK_ReadReg(R4)  returns 0x08019B48 (0000ms, 1749ms total)
T1B50 014:404 JLINK_ReadReg(R5)  returns 0x08019B48 (0000ms, 1749ms total)
T1B50 014:404 JLINK_ReadReg(R6)  returns 0x00000000 (0001ms, 1749ms total)
T1B50 014:405 JLINK_ReadReg(R7)  returns 0x00000000 (0000ms, 1750ms total)
T1B50 014:405 JLINK_ReadReg(R8)  returns 0x00000000 (0000ms, 1750ms total)
T1B50 014:405 JLINK_ReadReg(R9)  returns 0x00000000 (0000ms, 1750ms total)
T1B50 014:405 JLINK_ReadReg(R10)  returns 0x00000000 (0000ms, 1750ms total)
T1B50 014:405 JLINK_ReadReg(R11)  returns 0x00000000 (0000ms, 1750ms total)
T1B50 014:405 JLINK_ReadReg(R12)  returns 0x00000066 (0000ms, 1750ms total)
T1B50 014:405 JLINK_ReadReg(R14)  returns 0x08000E91 (0000ms, 1750ms total)
T1B50 014:405 JLINK_ReadReg(R15)  returns 0x08010EB8 (0000ms, 1750ms total)
T1B50 014:405 JLINK_ReadReg(XPSR)  returns 0x61000000 (0001ms, 1750ms total)
T1B50 014:406 JLINK_ReadReg(CFBP)  returns 0x00000000 (0000ms, 1751ms total)
T1B50 014:406 JLINK_ReadReg(MSP)  returns 0x2000E6D0 (0000ms, 1751ms total)
T1B50 014:406 JLINK_ReadMemU32(0xE0001004, 0x0001 Items, ...) -- CPU_ReadMem(4 bytes @ 0xE0001004) -- Data:  01 00 00 40  returns 0x01 (0001ms, 1751ms total)
T1B50 029:256 JLINK_WriteU32(0xE000EDFC, 0x00000000) -- CPU_WriteMem(4 bytes @ 0xE000EDFC)  returns 0x00 (0002ms, 1752ms total)
T1B50 029:258 JLINK_Close() -- CPU_WriteMem(4 bytes @ 0xE0002008) -- CPU_WriteMem(4 bytes @ 0xE000200C) -- CPU_WriteMem(4 bytes @ 0xE0002010) -- CPU_WriteMem(4 bytes @ 0xE0002014) -- CPU_WriteMem(4 bytes @ 0xE0002018) -- CPU_WriteMem(4 bytes @ 0xE000201C) (0133ms, 1754ms total)
